
**** 02/07/25 12:55:27 **** PSpice 23.1.0 (30 January 2024) *** ID# 0 ********

 ** Profile: "SCHEMATIC1-Steady State"  [ e:\cloud\onedrive - university of southampton\sufst\pcb\tsal-led\sim\pspice\tsal-led-driver


 ****     CIRCUIT DESCRIPTION


******************************************************************************




** Creating circuit file "Steady State.cir" 
** WARNING: THIS AUTOMATICALLY GENERATED FILE MAY BE OVERWRITTEN BY SUBSEQUENT SIMULATIONS

*Libraries: 
* Profile Libraries :
* Local Libraries :
* From [PSPICE NETLIST] section of C:\cds_spb_home\cdssetup\OrCAD_PSpiceTIPSpice_Install\23.1.0\PSpice.ini file:
.lib "nom_pspti.lib" 
.lib "nom.lib" 

*Analysis directives: 
.TRAN  0 20 0 0.001 
.OPTIONS ADVCONV
.OPTIONS FILEMODELSEARCH
.PROBE64 V(alias(*)) I(alias(*)) W(alias(*)) D(alias(*)) NOISE(alias(*)) 
.INC "..\SCHEMATIC1.net" 



**** INCLUDING SCHEMATIC1.net ****
* source TSAL-LED-DRIVER
X_U1         0 N01165 N00147 N04232 N00197 N05566 0 0 N00197 N000844 N00147
+  N00147 LMR33620C_TRANS PARAMS: MODE=0 FASTSS=0
C_C1         0 N000844  1u  TC=0,0 
C_C2         N00197 N01165  100n  TC=0,0 
C_C3         0 N00147  22u  TC=0,0 
C_C4         0 N00147  220n  TC=0,0 
V_V1         N00147 0 12
L_L1         N00197 N01696  1.2u  
C_C5         0 N01696  22u  TC=0,0 
C_C6         0 N01696  22u  TC=0,0 
C_C7         0 N01696  22u  TC=0,0 
C_C8         0 N01696  22u  TC=0,0 
X_D1         N01696 N02553 POWER_DIODE_P PARAMS: I_REV_LEAK=1E-5
+  CT_ZERO_VOLTS=300PF V_BR=600 VJ_KNEE=2.6 VJ_SPEC=3.8 IF_SPEC=6
R_RS1         0 N02553  2m TC=0,0 
X_U2         N02553 N04289 N03412 0 N04277 LM7321
R_R1         N03412 N00147  10k TC=0,0 
R_R2         0 N03412  5k TC=0,0 
R_R3         0 N04289  10k TC=0,0 
R_R4         N04277 N04289  20k TC=0,0 
R_R5         0 N04277  100k TC=0,0 
R_R6         N01696 N04232  200k TC=0,0 
R_R7         N04232 0  68k TC=0,0 
C_C9         N03412 N00147  100n  TC=0,0 
C_C10         0 N03412  100n  TC=0,0 
R_R8         N05566 0  100k TC=0,0 

**** RESUMING "Steady State.cir" ****
.END

**** 02/07/25 12:55:27 **** PSpice 23.1.0 (30 January 2024) *** ID# 0 ********

 ** Profile: "SCHEMATIC1-Steady State"  [ e:\cloud\onedrive - university of southampton\sufst\pcb\tsal-led\sim\pspice\tsal-led-driver


 ****     Diode MODEL PARAMETERS


******************************************************************************




               X_D1.D1exp      X_U2.DD         X_U2.DVN        X_U2.DIN        
          IS   10.000000E-06   10.000000E-15   10.000000E-15   10.000000E-15 
          BV  600                                                            
          RS     .2                                                          
         CJO  300.000000E-12                                                 
          KF                                    2.500000E-15    1.000000E-15 


               D_D             D_D1            D_D2            D_body          
          IS    1.000000E-15    1.000000E-15    1.000000E-15    1.000000E-15 
           N    1.000000E-03     .1              .01             .6          
          RS     .05             .5              .05             .05         
          TT   10.000000E-12   10.000000E-12   10.000000E-12   10.000000E-12 


               X_U1.X_U3_U677.d_d1 
          IS    1.000000E-15 
           N     .1          
          RS     .05         
          TT   10.000000E-12 


               X_U1.X_U6_U677.d_d1 
          IS    1.000000E-15 
           N     .1          
          RS     .05         
          TT   10.000000E-12 


**** 02/07/25 12:55:27 **** PSpice 23.1.0 (30 January 2024) *** ID# 0 ********

 ** Profile: "SCHEMATIC1-Steady State"  [ e:\cloud\onedrive - university of southampton\sufst\pcb\tsal-led\sim\pspice\tsal-led-driver


 ****     BJT MODEL PARAMETERS


******************************************************************************




               X_U2.QON        X_U2.QOP        X_U2.QPX        X_U2.QIN        
               NPN             PNP             PNP             NPN             
       LEVEL    1               1               1               1            
          IS  100.000000E-15  100.000000E-15   10.000000E-15  100.000000E-18 
          BF  100             100             200               3.200000E+03 
          NF    1               1               1               1            
          BR    1               1               1               1            
          NR    1               1               1               1            
         ISS    0               0               0               0            
          RE    0               0               0               0            
          RC    1               1               0               0            
         CJE    0               0               0               0            
         VJE     .75             .75             .75             .75         
         CJC    0               0               0               0            
         VJC     .75             .75             .75             .75         
         MJC     .33             .33             .33             .33         
        XCJC    1               1               1               1            
         CJS    0               0               0               0            
         VJS     .75             .75             .75             .75         
          KF    0               0               0               0            
          AF    1               1               1               1            
          CN    2.42            2.2             2.2             2.42         
           D     .87             .52             .52             .87         


               X_U2.QIP        X_U2.QLN        X_U2.QLP        
               PNP             NPN             PNP             
       LEVEL    1               1               1            
          IS  100.000000E-18  100.000000E-18  100.000000E-18 
          BF    1.350000E+03  100             100            
          NF    1               1               1            
          BR    1               1               1            
          NR    1               1               1            
         ISS    0               0               0            
          RE    0               0               0            
          RC    0               0               0            
         CJE    0               0               0            
         VJE     .75             .75             .75         
         CJC    0               0               0            
         VJC     .75             .75             .75         
         MJC     .33             .33             .33         
        XCJC    1               1               1            
         CJS    0               0               0            
         VJS     .75             .75             .75         
          KF    0               0               0            
          AF    1               1               1            
          CN    2.2             2.42            2.2          
           D     .52             .87             .52         


**** 02/07/25 12:55:27 **** PSpice 23.1.0 (30 January 2024) *** ID# 0 ********

 ** Profile: "SCHEMATIC1-Steady State"  [ e:\cloud\onedrive - university of southampton\sufst\pcb\tsal-led\sim\pspice\tsal-led-driver


 ****     Voltage Controlled Switch MODEL PARAMETERS


******************************************************************************




               X_U1.X_U1_S2._U1_S2 
         RON     .1          
        ROFF    1.000000E+09 
         VON     .75         
        VOFF     .25         


               X_U1.X_U5_U153.s1 
         RON    1            
        ROFF    1.000000E+09 
         VON     .75         
        VOFF     .25         


               X_U1.X_U5_S4._U5_S4 
         RON    1.000000E-03 
        ROFF    1.000000E+06 
         VON     .8          
        VOFF     .25         


               X_U1.X_U5_S3._U5_S3 
         RON    1            
        ROFF  100.000000E+09 
         VON     .75         
        VOFF     .25         


               X_U1.X_U10_S19._U10_S19 
         RON   35            
        ROFF  100.000000E+06 
         VON     .8          
        VOFF     .2          


               X_U1.X_U3_S30._U3_S30 
         RON    1.000000E-03 
        ROFF    1.000000E+09 
         VON     .75         
        VOFF     .25         


               X_U1.X_U3_S26._U3_S26 
         RON    1.000000E-03 
        ROFF    1.000000E+09 
         VON     .8          
        VOFF     .2          


               X_U1.X_U3_S29._U3_S29 
         RON     .2          
        ROFF    1.000000E+09 
         VON     .8          
        VOFF     .2          


               X_U1.X_U3_S28._U3_S28 
         RON     .2          
        ROFF    5.000000E+09 
         VON     .75         
        VOFF     .25         


               X_U1.X_U6_S8._U6_S8 
         RON   10.000000E+03 
        ROFF    2.000000E+09 
         VON     .75         
        VOFF     .25         


               X_U1.X_U6_S7._U6_S7 
         RON   10.000000E+03 
        ROFF    2.000000E+09 
         VON     .75         
        VOFF     .25         


               X_U1.X_U6_S1._U6_S1 
         RON    1            
        ROFF    1.000000E+06 
         VON     .8          
        VOFF     .2          


               X_U1.X_U2_S1._U2_S1 
         RON    3.000000E+03 
        ROFF    1.000000E+09 
         VON     .5          
        VOFF     .2          


               X_U1.X_U4_S2._U4_S2 
         RON     .066        
        ROFF    1.000000E+09 
         VON     .5          
        VOFF     .2          


               X_U1.X_U4_S3._U4_S3 
         RON     .1          
        ROFF    1.000000E+09 
         VON     .8          
        VOFF     .2          


               X_U1.X_U4_S1._U4_S1 
         RON     .095        
        ROFF    1.000000E+09 
         VON     .5          
        VOFF     .2          


**** 02/07/25 12:55:27 **** PSpice 23.1.0 (30 January 2024) *** ID# 0 ********

 ** Profile: "SCHEMATIC1-Steady State"  [ e:\cloud\onedrive - university of southampton\sufst\pcb\tsal-led\sim\pspice\tsal-led-driver


 ****     INITIAL TRANSIENT SOLUTION       TEMPERATURE =   27.000 DEG C


******************************************************************************



 NODE   VOLTAGE     NODE   VOLTAGE     NODE   VOLTAGE     NODE   VOLTAGE


(N00147)   12.0000 (N00197)    2.2053 (N01165)    5.0000 (N01696)    2.2053     

(N02553)-16.44E-09 (N03412)    -.0209 (N04232)     .5596 (N04277)    -.0104     

(N04289)    -.0035 (N05566)    0.0000 (X_U2.6)     .4130 (X_U2.7)-289.4E-06     

(X_U2.8)    0.0000 (X_U2.9)-289.4E-06 (N000844)    5.0000                       

(X_U2.10)    -.0205                   (X_U2.11)    -.0205                       

(X_U2.12)    -.0209                   (X_U2.13)    -.0209                       

(X_U2.14)-79.29E-06                   (X_U2.15)    -.0105                       

(X_U2.16)    -.0105                   (X_U2.17)    -.0212                       

(X_U2.18) 243.0E-06                   (X_U2.19)    -.0104                       

(X_U2.20)    -.0105                   (X_U2.21)    -.0199                       

(X_U2.22)    -.0010                   (X_U2.23)    -.5541                       

(X_U2.24)    -.5448                   (X_U2.25)     .5332                       

(X_U2.26)     .5239                   (X_U2.27)    -.0105                       

(X_U2.28)    -.0104                   (X_U2.29)    -.4340                       

(X_U2.30)    -.0106                   (X_U2.31)    -.0103                       

(X_U2.32)    -.0105                   (X_U2.33)     .2791                       

(X_U2.34)     .2791                   (X_U2.35)    -.0065                       

(X_U2.36)     .0043                   (X_U2.37)     .5332                       

(X_U2.38)     .5333                   (X_U2.39)    -.5541                       

(X_U2.40)    -.5542                   (X_U2.41)    1.0000                       

(X_U2.42) 99.39E-06                   (X_U2.43)    -.0033                       

(X_U2.44)     .0559                   (X_U2.45)    -.0035                       

(X_U2.46)     .0559                   (X_U2.47)     .0559                       

(X_U2.48)    -.3345                   (X_U2.49)    -.3345                       

(X_U2.50)    -.3000                   (X_U2.51)    -.3136                       

(X_U2.52)    -.3000                   (X_U2.53)    -.0027                       

(X_U2.54)    -.3136                   (X_U2.55)    -.3136                       

(X_U2.56)    -.8237                   (X_U2.57)   -1.0179                       

(X_U2.58)    -.3166                   (X_U2.59)    -.3136                       

(X_U2.60)-736.2E-09                   (X_U2.61)-736.4E-09                       

(X_U2.62)     .2791                   (X_U2.63)    -.3000                       

(X_U2.64)   -1.0209                   (X_U2.65)    -.0035                       

(X_U2.66)     .5955                   (X_U2.67)     .5955                       

(X_U2.68)     .5955                   (X_U2.69)     .5955                       

(X_U2.70)    -.0035                   (X_U2.71)    -.0209                       

(X_U2.72)    0.0000                   (X_U2.73)    -.0017                       

(X_U2.74)    -.0017                   (X_U2.75)-2.094E-06                       

(X_U2.76)    0.0000                   (X_U2.77)-17.22E-06                       

(X_U2.78)-73.26E-09                   (X_U2.79)    -.0035                       

(X_U2.80)-736.2E-09                   (X_U2.81)-73.26E-09                       

(X_U2.82)-848.0E-09                   (X_U2.83)    -.0105                       

(X_U2.84)    -.0105                   (X_U2.85)     .6551                       

(X_U2.86)    -.5750                   (X_U2.87)    1.0062                       

(X_U2.88)    0.0000                   (X_U2.89)    0.0000                       

(X_U2.90)     .6551                   (X_U1.CLK)    0.0000                      

(X_U1.FBI)     .5596                  (X_U1.PH1)    0.0000                      

(X_U1.PH2)    1.0000                  (X_U1.UVP)    0.0000                      

(X_D1.np_1)    -.0447                 (X_U1.COMP)     .1595                     

(X_U1.CONT)    0.0000                 (X_U1.FFWD)    0.0000                     

(X_U1.HDRV)    0.0000                 (X_U1.LDRV)    0.0000                     

(X_U1.PGND) 1.104E-12                 (X_U1.RAMP) 13.86E-09                     

(X_U1.SDWN)    0.0000                 (X_U1.VREF) 2.000E-09                     

(X_U1.RMPOK)    0.0000                (X_U1.U1_5V)    5.0000                    

(X_U1.U3_S1)    1.0000                (X_U1.U6_V5)    5.0000                    

(X_U1.EN_INT)   12.0000               (X_U1.HDRV_N)    1.0000                   

(X_U1.HICCUP)    0.0000               (X_U1.ISLOPE) 13.86E-09                   

(X_U1.U3_VDC)   10.0000               (X_U1.U4_VDC)    3.3000                   

(X_U1.U4_ZCD)    1.0000               (X_U1.U6_SET)    0.0000                   

(X_U1.H_BLNCK)    0.0000              (X_U1.SS_DONE)    0.0000                  

(X_U1.TOFFBAR)    0.0000              (X_U1.U4_SWIN)    2.2053                  

(X_U1.COMP_OCP)    0.0000             (X_U1.PGOODDEL)    0.0000                 

(X_U1.PGOOD_EN)    1.0000             (X_U1.U1_VCOMP)     .8571                 

(X_U1.U2_DISCH)    0.0000             (X_U1.U4_VY_OK)    1.0000                 

(X_U1.U5_H_END)    0.0000             (X_U1.U6_GT_PK)    0.0000                 

(X_U1.U6_HS_ON)    0.0000             (X_U1.U6_PH1_1)    0.0000                 

(X_U1.U7_EN_TH)    1.0000             (X_U1.FPWM_GATE)    0.0000                

(X_U1.N16744338)    1.0000            (X_U1.N16883153)    1.0000                

(X_U1.N16892964)    1.0000            (X_U1.U10_UVP_N)    1.0000                

(X_U1.U2_SS_INT) 2.000E-09            (X_U1.U3_CLK_RT)    0.0000                

(X_U1.U4_LDRV_N)    1.0000            (X_U1.U4_VY_CMD)    0.0000                

(X_U1.U6_HSRAMP) 1.038E-06            (X_U1.U6_HS_CMD)   11.9380                

(X_U1.U6_PH1_1B)    1.0000            (X_U1.U4_CONTBAR)    1.0000               

(X_U1.U4_L_BLNCK)    1.0000           (X_U1.U6_PREBIAS)    1.0000               

(X_U1.U6_VSLOPE2) 13.86E-09           (X_U1.U7_VCCUVLO)    1.0000               

(X_U1.U7_VINUVLO)    1.0000           (X_U1.U3_RMPOKBAR)    1.0000              

(X_U1.U4_HDRV_INT)    0.0000          (X_U1.U4_LDRV_INT)    0.0000              

(X_U1.U4_LS_READY)    1.0000          (X_U1.U5_HICCUP_N)    1.0000              

(X_U1.U6_VOFFSET1) 9.900E-09          (X_U1.X_U7_U614.1)    1.0000              

(X_U1.X_U7_U615.1)    1.0000          (X_U1.X_U7_U623.1)    1.0000              

(X_U1.TOFF_TIMEOUT)    1.0000         (X_U1.U10_HICC_RES)    0.0000             

(X_U1.U10_PGOOD_OV)    0.0000         (X_U1.U10_PGOOD_UV)    1.0000             

(X_U1.U1_N16782512)     .7714         (X_U1.U1_N16782515)     .1595             

(X_U1.U1_N16782673) 1.143E-09         (X_U1.U1_N16782699)    1.0000             

(X_U1.U1_N16782831)    1.3800         (X_U1.U1_N16786757)     .5596             

(X_U1.U1_N16786776)     .5596         (X_U1.U1_N16787179) 6.600E-09             

(X_U1.U1_N16789339)     .8577         (X_U1.U1_N16790867)-593.3E-06             

(X_U1.U1_N16790903)    0.0000         (X_U1.U1_N16790907)    0.0000             

(X_U1.U1_N16790934)    0.0000         (X_U1.U1_N16791039)     .9000             

(X_U1.U1_N16791053)-159.3E-18         (X_U1.U1_N16791157)    1.0000             

(X_U1.U1_N16798814) 33.57E-06         (X_U1.U2_N16645820)    1.2000             

(X_U1.U2_N16727106)     .9500         (X_U1.U2_N16736482)    1.1000             

(X_U1.U2_N16741787) 2.000E-09         (X_U1.U3_DISCHARGE)    0.0000             

(X_U1.U3_N16802327)    1.0000         (X_U1.U3_N16802335)    1.0000             

(X_U1.U3_N16802340) 1.289E-06         (X_U1.U3_N16802392)    1.0000             

(X_U1.U3_N16802453)    1.0000         (X_U1.U3_N16802462)    1.0000             

(X_U1.U3_N16802467) 20.79E-09         (X_U1.U3_N16806508)    0.0000             

(X_U1.U3_N16835917)    1.0000         (X_U1.U3_N16835924)    0.0000             

(X_U1.U3_N16836023)    0.0000         (X_U1.U3_N16845023)    1.0000             

(X_U1.U3_RAMP_COMP)    0.0000         (X_U1.U4_LDRV_INT1)    0.0000             

(X_U1.U4_N16819744)    1.0000         (X_U1.U4_N16819764)    1.0000             

(X_U1.U4_N16819965)    1.0000         (X_U1.U4_N16820237)    0.0000             

(X_U1.U4_N16822220)   12.0000         (X_U1.U4_N16825000)-535.7E-06             

(X_U1.U4_N16825002)    0.0000         (X_U1.U4_N16825004)    0.0000             

(X_U1.U4_N16825022)    0.0000         (X_U1.U4_N16835331)    2.4553             

(X_U1.U4_N16838201)    1.0000         (X_U1.U4_N16840544)    1.0000             

(X_U1.U4_N16840587)    1.0000         (X_U1.U4_N16840592)    3.3613             

(X_U1.U4_N16892999)    0.0000         (X_U1.U4_N16893079)    0.0000             

(X_U1.U4_N16893089)    0.0000         (X_U1.U4_N16893159)    0.0000             

(X_U1.U4_N16894565)    0.0000         (X_U1.U4_N16894591)    0.0000             

(X_U1.U4_N16894615)    0.0000         (X_U1.U4_N16894652)    0.0000             

(X_U1.U4_ZCDTHRESH)    0.0000         (X_U1.U4_ZX_NEG_VY)    1.0000             

(X_U1.U5_N16777837)    1.0000         (X_U1.U5_N16777841)    0.0000             

(X_U1.U5_N16777867)    0.0000         (X_U1.U5_N16777880)    0.0000             

(X_U1.U5_N16777884)  128.0000         (X_U1.U5_N16777926)    0.0000             

(X_U1.U5_N16777933)    1.0000         (X_U1.U5_N16777947)    0.0000             

(X_U1.U5_N16777952)    0.0000         (X_U1.U5_N16778000)    0.0000             

